date Mon Jan  1 00:00:00 2007
base hex  timestamps absolute
no internal events logged
   0.000000 0 7A1             Tx   d 8 03 22 02 00 00 00 00 00
   0.003133 0 7A9             Rx   d 8 04 62 02 00 00 55 55 55
   4.797588 0 7A1             Tx   d 8 03 22 02 01 00 00 00 00
   4.798074 0 7A9             Rx   d 8 04 62 02 01 00 55 55 55
  87.114006 0 7A1             Tx   d 8 03 22 DF EF 00 00 00 00
  87.117222 0 7A9             Rx   d 8 10 43 62 DF EF 00 00 00
  87.125839 0 7A1             Tx   d 8 30 00 00 00 00 00 00 00
  87.127004 0 7A9             Rx   d 8 21 00 00 00 00 00 00 00
  87.132006 0 7A9             Rx   d 8 22 00 00 00 00 00 00 00
  87.137004 0 7A9             Rx   d 8 23 00 00 00 00 00 00 00
  87.142005 0 7A9             Rx   d 8 24 00 00 00 00 00 00 00
  87.147003 0 7A9             Rx   d 8 25 00 00 00 00 00 00 00
  87.152003 0 7A9             Rx   d 8 26 00 00 00 00 00 00 00
  87.157005 0 7A9             Rx   d 8 27 00 00 00 00 00 00 00
  87.162004 0 7A9             Rx   d 8 28 00 00 00 00 00 00 00
  87.167000 0 7A9             Rx   d 8 29 00 00 00 00 00 55 55
 565.910464 0 7A1             Tx   d 8 03 22 F1 12 00 00 00 00
 565.910994 0 7A9             Rx   d 8 10 0B 62 F1 12 20 20 20
 565.920447 0 7A1             Tx   d 8 30 00 00 00 00 00 00 00
 565.920920 0 7A9             Rx   d 8 21 20 20 20 20 20 55 55
 631.806775 0 7A1             Tx   d 8 03 22 F1 13 00 00 00 00
 631.810135 0 7A9             Rx   d 8 07 62 F1 13 01 00 00 00
 730.829311 0 7A1             Tx   d 8 03 22 F1 80 00 00 00 00
 730.833880 0 7A9             Rx   d 8 10 13 62 F1 80 31 30 30
 730.842453 0 7A1             Tx   d 8 30 00 00 00 00 00 00 00
 730.843825 0 7A9             Rx   d 8 21 30 30 30 30 30 30 30
 730.848827 0 7A9             Rx   d 8 22 30 30 30 30 30 30 55
1359.358274 0 7A1             Tx   d 8 03 22 F1 86 00 00 00 00
1359.360896 0 7A9             Rx   d 8 04 62 F1 86 01 55 55 55
1396.435252 0 7A1             Tx   d 8 03 22 F1 87 00 00 00 00
1396.440430 0 7A9             Rx   d 8 10 0D 62 F1 87 36 36 30
1396.450833 0 7A1             Tx   d 8 30 00 00 00 00 00 00 00
1396.455368 0 7A9             Rx   d 8 21 30 30 30 33 35 37 39
1668.439302 0 7A1             Tx   d 8 03 22 F1 8A 00 00 00 00
1668.441977 0 7A9             Rx   d 8 10 09 62 F1 8A 35 31 32
1668.454166 0 7A1             Tx   d 8 30 00 00 00 00 00 00 00
1668.456914 0 7A9             Rx   d 8 21 30 39 31 55 55 55 55
1699.321953 0 7A1             Tx   d 8 03 22 F1 8B 00 00 00 00
1699.326592 0 7A9             Rx   d 8 07 62 F1 8B 20 18 08 08
1884.062101 0 7A1             Tx   d 8 03 22 F1 8C 00 00 00 00
1884.064247 0 7A9             Rx   d 8 10 1B 62 F1 8C 35 31 32
1884.074615 0 7A1             Tx   d 8 30 00 00 00 00 00 00 00
1884.079175 0 7A9             Rx   d 8 21 30 39 31 35 31 32 30
1884.084175 0 7A9             Rx   d 8 22 39 31 35 31 32 30 39
1884.089178 0 7A9             Rx   d 8 23 31 35 31 32 30 39 31
1931.862749 0 7A1             Tx   d 8 03 22 F1 90 00 00 00 00
1931.863697 0 7A9             Rx   d 8 10 14 62 F1 90 20 20 20
1931.874019 0 7A1             Tx   d 8 30 00 00 00 00 00 00 00
1931.878611 0 7A9             Rx   d 8 21 20 20 20 20 20 20 20
1931.883583 0 7A9             Rx   d 8 22 20 20 20 20 20 20 20
1952.080387 0 7A1             Tx   d 8 03 22 F1 93 00 00 00 00
1952.083393 0 7A9             Rx   d 8 10 13 62 F1 93 20 20 20
1952.092580 0 7A1             Tx   d 8 30 00 00 00 00 00 00 00
1952.093325 0 7A9             Rx   d 8 21 20 20 20 20 20 20 20
1952.098324 0 7A9             Rx   d 8 22 20 20 20 20 20 20 55
2008.459840 0 7A1             Tx   d 8 03 22 F1 95 00 00 00 00
2008.462682 0 7A9             Rx   d 8 10 13 62 F1 95 20 20 20
2008.484102 0 7A1             Tx   d 8 30 00 00 00 00 00 00 00
2008.487610 0 7A9             Rx   d 8 21 20 20 20 20 20 20 20
2008.492606 0 7A9             Rx   d 8 22 20 20 20 20 20 20 55
2092.524745 0 7A1             Tx   d 8 03 22 F1 97 00 00 00 00
2092.526637 0 7A9             Rx   d 8 10 0B 62 F1 97 20 20 20
2092.542415 0 7A1             Tx   d 8 30 00 00 00 00 00 00 00
2092.546535 0 7A9             Rx   d 8 21 20 20 20 20 20 55 55
2121.409478 0 7A1             Tx   d 8 03 22 F1 98 00 00 00 00
2121.411294 0 7A9             Rx   d 8 10 13 62 F1 98 20 20 20
2121.422019 0 7A1             Tx   d 8 30 00 00 00 00 00 00 00
2121.426174 0 7A9             Rx   d 8 21 20 20 20 20 20 20 20
2121.431172 0 7A9             Rx   d 8 22 20 20 20 20 20 20 55
2126.672345 0 7A1             Tx   d 8 03 22 F1 99 00 00 00 00
2126.676197 0 7A9             Rx   d 8 07 62 F1 99 20 00 01 01
2137.329657 0 7A1             Tx   d 8 03 22 F1 9D 00 00 00 00
2137.331063 0 7A9             Rx   d 8 07 62 F1 9D 20 00 01 01
